hour,vin,vout
0,0,0
1,90,80
2,400,390
3,900,874
4,1860,1870
5,2060,2028
6,2200,2210
7,3000,2978
8,4060,4026
9,4200,4154
10,3207,3223
11,3386,3424
12,2810,2832
13,3019,3029
14,3880,3838
15,3665,3637
16,4020,3980
17,4600,4634
18,4282,4316
19,3740,3772
20,3120,3138
21,1680,1706
22,408,438
23,0,10
